TAA17F780 000:001.053   SEGGER J-Link V7.96a Log File
TAA17F780 000:001.210   DLL Compiled: Mar 14 2024 17:17:23
TAA17F780 000:001.217   Logging started @ 2025-04-23 11:04
TAA17F780 000:001.223   Process: /home/acirne/.eclipse/com.renesas.platform_1814035230/DebugComp/RA/e2-server-gdb
TAA17F780 000:001.228 - 1.228ms
TAA17F780 000:001.235 JLINK_GetDLLVersion()
TAA17F780 000:001.241 - 0.006ms returns 79601
TAA17F780 000:001.478 JLINK_OpenEx(...)
TAA17F780 000:007.747   Firmware: J-Link OB-RA4M2 compiled May 28 2024 15:43:06
TAA17F780 000:010.758   Firmware: J-Link OB-RA4M2 compiled May 28 2024 15:43:06
TAA17F780 000:027.552   Hardware: V1.00
TAA17F780 000:027.598   S/N: 1087724653
TAA17F780 000:027.620   OEM: SEGGER
TAA17F780 000:027.629   Feature(s): None
TAA17F780 000:030.545   Bootloader: 2021 May 14
TAA17F780 000:032.538   USB speed mode: Full speed (12 MBit/s)
TAA17F780 000:033.838   TELNET listener socket opened on port 19021
TAA17F780 000:033.947   WEBSRV WEBSRV_Init(): Starting webserver thread(s)
TAA17F780 000:033.972   WEBSRV Failed to put socket into listener state (port 19080)
TAA17F780 000:034.034   WEBSRV Webserver running on local port 19081
TAA17F780 000:034.056   Looking for J-Link GUI Server exe at: ARM/Segger_v7.96.1/JLinkGUIServerExe
TAA17F780 000:034.072   Looking for J-Link GUI Server exe at: /opt/SEGGER/JLink/JLinkGUIServerExe
TAA17F780 000:034.084   Forking J-Link GUI Server: /opt/SEGGER/JLink/JLinkGUIServerExe
TAA17F780 000:034.485   J-Link GUI Server info: "J-Link GUI server V7.96m "
TAA17F780 000:034.730 - 33.245ms returns "O.K."
TAA17F780 000:034.800 JLINK_TIF_Select(JLINKARM_TIF_SWD)
TAA17F780 000:039.029 - 4.228ms returns 0x00
TAA17F780 000:039.070 JLINK_ClrRESET()
TAA17F780 000:055.643 - 16.572ms
TAA17F780 000:105.820 JLINK_SetSpeed(1500)
TAA17F780 000:106.825 - 1.005ms
TAA17F780 000:106.872 JLINK_CORESIGHT_Configure(PerformTIFInit=0)
TAA17F780 000:110.252 - 3.379ms returns 0
TAA17F780 000:110.291 JLINK_CORESIGHT_ReadAPDPReg(DP reg 0x00)
TAA17F780 000:110.724   Value=0x6BA02477
TAA17F780 000:110.748 - 0.457ms returns 0
TAA17F780 000:110.777 JLINK_CORESIGHT_WriteAPDPReg(DP reg 0x00, 0x0000001F)
TAA17F780 000:111.019 - 0.242ms returns 0
TAA17F780 000:111.046 JLINK_CORESIGHT_ReadAPDPReg(DP reg 0x00)
TAA17F780 000:111.296   Value=0x6BA02477
TAA17F780 000:111.313 - 0.268ms returns 0
TAA17F780 000:111.334 JLINK_CORESIGHT_WriteAPDPReg(DP reg 0x02, 0x00000000)
TAA17F780 000:111.572 - 0.237ms returns 0
TAA17F780 000:111.596 JLINK_CORESIGHT_WriteAPDPReg(DP reg 0x01, 0x50000000)
TAA17F780 000:111.781 - 0.185ms returns 0
TAA17F780 000:111.809 JLINK_CORESIGHT_ReadAPDPReg(DP reg 0x01)
TAA17F780 000:112.019   Value=0xF0000000
TAA17F780 000:112.036 - 0.227ms returns 0
TAA17F780 000:112.056 JLINK_CORESIGHT_WriteAPDPReg(DP reg 0x00, 0x0000001F)
TAA17F780 000:112.316 - 0.260ms returns 0
TAA17F780 000:112.341 JLINK_CORESIGHT_ReadAPDPReg(DP reg 0x00)
TAA17F780 000:112.626   Value=0x6BA02477
TAA17F780 000:112.644 - 0.303ms returns 0
TAA17F780 000:112.664 JLINK_CORESIGHT_WriteAPDPReg(DP reg 0x01, 0x54000000)
TAA17F780 000:112.873 - 0.209ms returns 0
TAA17F780 000:112.897 JLINK_CORESIGHT_WriteAPDPReg(DP reg 0x01, 0x50000F00)
TAA17F780 000:113.126 - 0.229ms returns 0
TAA17F780 000:113.151 JLINK_CORESIGHT_WriteAPDPReg(DP reg 0x02, 0x01000000)
TAA17F780 000:113.480 - 0.329ms returns 0
TAA17F780 000:113.504 JLINK_CORESIGHT_WriteAPDPReg(AP reg 0x00, 0x80000002)
TAA17F780 000:113.731 - 0.227ms returns 0
TAA17F780 000:113.757 JLINK_CORESIGHT_WriteAPDPReg(AP reg 0x01, 0x80011100)
TAA17F780 000:113.989 - 0.232ms returns 0
TAA17F780 000:114.013 JLINK_CORESIGHT_WriteAPDPReg(AP reg 0x03, 0x000000A5)
TAA17F780 000:114.240 - 0.227ms returns 0
TAA17F780 000:114.264 JLINK_CORESIGHT_WriteAPDPReg(AP reg 0x00, 0x80000002)
TAA17F780 000:114.489 - 0.225ms returns 0
TAA17F780 000:114.514 JLINK_CORESIGHT_WriteAPDPReg(AP reg 0x01, 0x80011100)
TAA17F780 000:114.699 - 0.185ms returns 0
TAA17F780 000:114.723 JLINK_CORESIGHT_ReadAPDPReg(AP reg 0x03)
TAA17F780 000:114.967   Value=0x000000A5
TAA17F780 000:115.013 - 0.290ms returns 0
TAA17F780 000:115.038 JLINK_ClrTMS()
TAA17F780 000:115.111 - 0.073ms
TAA17F780 000:120.201 JLINK_SetTCK()
TAA17F780 000:120.353 - 0.151ms returns 0
TAA17F780 000:125.503 JLINK_SetRESET()
TAA17F780 000:125.862 - 0.358ms
TAA17F780 000:326.031 JLINK_CORESIGHT_WriteAPDPReg(AP reg 0x00, 0x80000002)
TAA17F780 000:327.427 - 1.397ms returns 0
TAA17F780 000:327.552 JLINK_CORESIGHT_WriteAPDPReg(AP reg 0x01, 0x80011100)
TAA17F780 000:328.072 - 0.518ms returns 0
TAA17F780 000:328.178 JLINK_CORESIGHT_ReadAPDPReg(AP reg 0x03)
TAA17F780 000:328.732   failed
TAA17F780 000:328.785 - 0.607ms returns -1
TAA17F780 000:328.922 JLINK_ClrRESET()
TAA17F780 000:329.727 - 0.804ms
TAA17F780 000:379.981 JLINK_SetSpeed(1500)
TAA17F780 000:380.519 - 0.537ms
TAA17F780 000:380.625 JLINK_CORESIGHT_Configure(PerformTIFInit=0)
TAA17F780 000:381.318 - 0.692ms returns 0
TAA17F780 000:381.432 JLINK_CORESIGHT_ReadAPDPReg(DP reg 0x00)
TAA17F780 000:381.948   Value=0x6BA02477
TAA17F780 000:381.999 - 0.567ms returns 0
TAA17F780 000:382.055 JLINK_CORESIGHT_WriteAPDPReg(DP reg 0x00, 0x0000001F)
TAA17F780 000:382.543 - 0.489ms returns 0
TAA17F780 000:382.607 JLINK_CORESIGHT_ReadAPDPReg(DP reg 0x00)
TAA17F780 000:383.078   Value=0x6BA02477
TAA17F780 000:383.145 - 0.538ms returns 0
TAA17F780 000:383.208 JLINK_CORESIGHT_WriteAPDPReg(DP reg 0x02, 0x00000000)
TAA17F780 000:384.323 - 1.115ms returns 0
TAA17F780 000:384.431 JLINK_CORESIGHT_WriteAPDPReg(DP reg 0x01, 0x50000000)
TAA17F780 000:384.975 - 0.544ms returns 0
TAA17F780 000:385.084 JLINK_CORESIGHT_ReadAPDPReg(DP reg 0x01)
TAA17F780 000:385.597   Value=0xF0000000
TAA17F780 000:385.670 - 0.586ms returns 0
TAA17F780 000:385.748 JLINK_CORESIGHT_WriteAPDPReg(DP reg 0x00, 0x0000001F)
TAA17F780 000:386.177 - 0.429ms returns 0
TAA17F780 000:386.244 JLINK_CORESIGHT_ReadAPDPReg(DP reg 0x00)
TAA17F780 000:386.628   Value=0x6BA02477
TAA17F780 000:386.679 - 0.435ms returns 0
TAA17F780 000:386.734 JLINK_CORESIGHT_WriteAPDPReg(DP reg 0x01, 0x54000000)
TAA17F780 000:387.288 - 0.554ms returns 0
TAA17F780 000:387.375 JLINK_CORESIGHT_WriteAPDPReg(DP reg 0x01, 0x50000F00)
TAA17F780 000:387.902 - 0.525ms returns 0
TAA17F780 000:388.010 JLINK_CORESIGHT_WriteAPDPReg(DP reg 0x02, 0x01000000)
TAA17F780 000:388.553 - 0.544ms returns 0
TAA17F780 000:388.622 JLINK_CORESIGHT_WriteAPDPReg(AP reg 0x00, 0x80000002)
TAA17F780 000:389.082 - 0.459ms returns 0
TAA17F780 000:389.153 JLINK_CORESIGHT_WriteAPDPReg(AP reg 0x01, 0x80011100)
TAA17F780 000:389.568 - 0.416ms returns 0
TAA17F780 000:389.632 JLINK_CORESIGHT_WriteAPDPReg(AP reg 0x03, 0x000000A5)
TAA17F780 000:390.100 - 0.466ms returns 0
TAA17F780 000:390.247 JLINK_CORESIGHT_WriteAPDPReg(AP reg 0x00, 0x80000002)
TAA17F780 000:390.853 - 0.605ms returns 0
TAA17F780 000:390.955 JLINK_CORESIGHT_WriteAPDPReg(AP reg 0x01, 0x80011100)
TAA17F780 000:392.617 - 1.661ms returns 0
TAA17F780 000:392.796 JLINK_CORESIGHT_ReadAPDPReg(AP reg 0x03)
TAA17F780 000:393.598   Value=0x000000A5
TAA17F780 000:393.674 - 0.877ms returns 0
TAA17F780 000:393.876 JLINK_ClrTMS()
TAA17F780 000:394.419 - 0.542ms
TAA17F780 000:399.633 JLINK_SetTCK()
TAA17F780 000:400.147 - 0.514ms returns 0
TAA17F780 000:405.376 JLINK_SetRESET()
TAA17F780 000:405.802 - 0.425ms
TAA17F780 000:606.028 JLINK_CORESIGHT_WriteAPDPReg(AP reg 0x00, 0x80000002)
TAA17F780 000:606.712 - 0.685ms returns 0
TAA17F780 000:606.782 JLINK_CORESIGHT_WriteAPDPReg(AP reg 0x01, 0x80011100)
TAA17F780 000:607.130 - 0.348ms returns 0
TAA17F780 000:607.175 JLINK_CORESIGHT_ReadAPDPReg(AP reg 0x03)
TAA17F780 000:607.704   failed
TAA17F780 000:607.753 - 0.578ms returns -1
TAA17F780 000:607.947 JLINK_CORESIGHT_ReadAPDPReg(DP reg 0x01)
TAA17F780 000:608.471   Value=0xF0000F00
TAA17F780 000:608.520 - 0.573ms returns 0
TAA17F780 000:608.573 JLINK_CORESIGHT_WriteAPDPReg(DP reg 0x01, 0xA0000F00)
TAA17F780 000:608.987 - 0.415ms returns 0
TAA17F780 000:609.059 JLINK_CORESIGHT_ReadAPDPReg(DP reg 0x01)
TAA17F780 000:609.539   Value=0x00000F00
TAA17F780 000:609.588 - 0.529ms returns 0
TAA17F780 000:609.670 JLINK_ClrRESET()
TAA17F780 000:610.296 - 0.625ms
TAA17F780 000:712.636 JLINK_Close()
TAA17F780 000:720.284 - 7.647ms
TAA17F780 000:720.351   
TAA17F780 000:720.379   Closed
